
T043C 000:283 SEGGER J-Link V5.02f Log File (0000ms, 0270ms total)
T043C 000:283 DLL Compiled: Oct  2 2015 20:51:34 (0000ms, 0270ms total)
T043C 000:283 Logging started @ 2018-01-28 22:37 (0000ms, 0270ms total)
T043C 000:283 JLINK_SetWarnOutHandler(...) (0000ms, 0270ms total)
T043C 000:283 JLINK_OpenEx(...)
Firmware: J-Link ARM-OB STM32 compiled Aug 22 2012 19:52:04
Hardware: V7.00
Feature(s): RDI,FlashDL,FlashBP,JFlash,GDBFull  returns O.K. (0268ms, 0538ms total)
T043C 000:551 JLINK_SetErrorOutHandler(...) (0000ms, 0538ms total)
T043C 000:551 JLINK_ExecCommand("ProjectFile = "C:\Users\Javier\Desktop\Empresa\LPC1768\RTC\JLinkSettings.ini"", ...)  returns 0x00 (0000ms, 0538ms total)
T043C 000:551 JLINK_ExecCommand("Device = LPC1768", ...)Device "LPC1768" selected.  returns 0x00 (0001ms, 0539ms total)
T043C 000:552 JLINK_ExecCommand("DisableConnectionTimeout", ...)  returns 0x01 (0000ms, 0539ms total)
T043C 000:552 JLINK_GetHardwareVersion()  returns 0x11170 (0000ms, 0539ms total)
T043C 000:552 JLINK_GetDLLVersion()  returns 50206 (0000ms, 0539ms total)
T043C 000:552 JLINK_GetFirmwareString(...) (0000ms, 0539ms total)
T043C 000:553 JLINK_GetDLLVersion()  returns 50206 (0000ms, 0539ms total)
T043C 000:553 JLINK_GetCompileDateTime() (0000ms, 0539ms total)
T043C 000:553 JLINK_GetFirmwareString(...) (0000ms, 0539ms total)
T043C 000:553 JLINK_GetHardwareVersion()  returns 0x11170 (0000ms, 0539ms total)
T043C 000:553 JLINK_TIF_Select(JLINKARM_TIF_SWD)  returns 0x00 (0003ms, 0542ms total)
T043C 000:556 JLINK_SetSpeed(50000) (0002ms, 0544ms total)
T043C 000:558 JLINK_GetId() >0x108 TIF>Found SWD-DP with ID 0x2BA01477 >0x0D TIF> >0x21 TIF> >0x0D TIF> >0x28 TIF> >0x0D TIF> >0x28 TIF> >0x0D TIF> >0x21 TIF> >0x0D TIF> >0x28 TIF> >0x0D TIF> >0x21 TIF> >0x0D TIF> >0x21 TIF> >0x0D TIF> >0x21 TIF> >0x0D TIF> >0x21 TIF> >0x0D TIF> >0x28 TIF> >0x0D TIF> >0x28 TIF> >0x0D TIF> >0x21 TIF> >0x0D TIF> >0x28 TIF> >0x0D TIF> >0x28 TIF> >0x0D TIF> >0x28 TIF> >0x0D TIF> >0x21 TIF> >0x0D TIF> >0x21 TIF> >0x0D TIF> >0x28 TIF> >0x0D TIF> >0x21 TIF> >0x0D TIF>
 >0x21 TIF>Found Cortex-M3 r2p0, Little endian. -- CPU_ReadMem(4 bytes @ 0xE000EDF0) -- CPU_ReadMem(4 bytes @ 0xE0002000)FPUnit: 6 code (BP) slots and 2 literal slots -- CPU_ReadMem(4 bytes @ 0xE000EDFC) -- CPU_ReadMem(4 bytes @ 0xE0001000) -- CPU_WriteMem(4 bytes @ 0xE0001000) -- CPU_ReadMem(4 bytes @ 0xE000ED88) -- CPU_WriteMem(4 bytes @ 0xE000ED88) -- CPU_ReadMem(4 bytes @ 0xE000ED88) -- CPU_WriteMem(4 bytes @ 0xE000ED88)CoreSight components:ROMTbl 0 @ E00FF000 -- CPU_ReadMem(16 bytes @ 0xE00FF000)
 -- CPU_ReadMem(16 bytes @ 0xE000EFF0) -- CPU_ReadMem(16 bytes @ 0xE000EFE0)ROMTbl 0 [0]: FFF0F000, CID: B105E00D, PID: 002BB000 SCS -- CPU_ReadMem(16 bytes @ 0xE0001FF0) -- CPU_ReadMem(16 bytes @ 0xE0001FE0)ROMTbl 0 [1]: FFF02000, CID: B105E00D, PID: 002BB002 DWT -- CPU_ReadMem(16 bytes @ 0xE0002FF0) -- CPU_ReadMem(16 bytes @ 0xE0002FE0)ROMTbl 0 [2]: FFF03000, CID: B105E00D, PID: 002BB003 FPB -- CPU_ReadMem(16 bytes @ 0xE0000FF0) -- CPU_ReadMem(16 bytes @ 0xE0000FE0)
ROMTbl 0 [3]: FFF01000, CID: B105E00D, PID: 002BB001 ITM -- CPU_ReadMem(16 bytes @ 0xE00FF010) -- CPU_ReadMem(16 bytes @ 0xE0040FF0) -- CPU_ReadMem(16 bytes @ 0xE0040FE0)ROMTbl 0 [4]: FFF41000, CID: B105900D, PID: 002BB923 TPIU-Lite -- CPU_ReadMem(16 bytes @ 0xE0041FF0) -- CPU_ReadMem(16 bytes @ 0xE0041FE0)ROMTbl 0 [5]: FFF42000, CID: B105900D, PID: 002BB924 ETM-M3 >0x0D TIF> >0x21 TIF>  returns 0x2BA01477 (0073ms, 0617ms total)
T043C 000:631 JLINK_GetDLLVersion()  returns 50206 (0000ms, 0617ms total)
T043C 000:631 JLINK_CORE_GetFound()  returns 0x30000FF (0000ms, 0617ms total)
T043C 000:631 JLINK_GetDebugInfo(0x100) -- Value=0xE00FF003  returns 0x00 (0000ms, 0617ms total)
T043C 000:631 JLINK_GetDebugInfo(0x100) -- Value=0xE00FF003  returns 0x00 (0000ms, 0617ms total)
T043C 000:631 JLINK_GetDebugInfo(0x101) -- Value=0xE0041000  returns 0x00 (0000ms, 0617ms total)
T043C 000:631 JLINK_GetDebugInfo(0x102) -- Value=0x00000000  returns 0x00 (0000ms, 0617ms total)
T043C 000:631 JLINK_GetDebugInfo(0x103) -- Value=0xE0040000  returns 0x00 (0000ms, 0617ms total)
T043C 000:631 JLINK_GetDebugInfo(0x104) -- Value=0xE0000000  returns 0x00 (0000ms, 0617ms total)
T043C 000:631 JLINK_GetDebugInfo(0x105) -- Value=0xE0001000  returns 0x00 (0000ms, 0617ms total)
T043C 000:631 JLINK_GetDebugInfo(0x106) -- Value=0xE0002000  returns 0x00 (0000ms, 0617ms total)
T043C 000:631 JLINK_GetDebugInfo(0x107) -- Value=0xE000E000  returns 0x00 (0000ms, 0617ms total)
T043C 000:631 JLINK_GetDebugInfo(0x10C) -- Value=0xE000EDF0  returns 0x00 (0000ms, 0617ms total)
T043C 000:631 JLINK_ReadMemU32(0xE000ED00, 0x0001 Items, ...) -- CPU is running -- CPU_ReadMem(4 bytes @ 0xE000ED00) - Data: 30 C2 2F 41  returns 0x01 (0002ms, 0619ms total)
T043C 000:633 JLINK_SetResetType(JLINKARM_RESET_TYPE_NORMAL)  returns ??? (0000ms, 0619ms total)
T043C 000:633 JLINK_Reset() -- CPU is running -- CPU_WriteMem(4 bytes @ 0xE000EDF0) -- CPU is running -- CPU_WriteMem(4 bytes @ 0xE000EDFC) >0x35 TIF> -- CPU is running -- CPU_WriteMem(4 bytes @ 0xE000ED0C) -- CPU is running -- CPU_ReadMem(4 bytes @ 0xE000EDF0) -- CPU is running -- CPU_ReadMem(4 bytes @ 0xE000EDF0) -- CPU is running -- CPU_WriteMem(4 bytes @ 0xE000EDF0) -- CPU is running -- CPU_WriteMem(4 bytes @ 0xE000EDFC) -- CPU is running -- CPU_ReadMem(4 bytes @ 0xE000EDF0)
 -- CPU_WriteMem(4 bytes @ 0xE000EDFC) -- CPU_WriteMem(4 bytes @ 0xE000EDFC) -- CPU_WriteMem(4 bytes @ 0xE000EDFC) -- CPU_WriteMem(4 bytes @ 0xE000EDFC) -- CPU_WriteMem(4 bytes @ 0xE000EDFC) -- CPU_WriteMem(4 bytes @ 0xE0001050) -- CPU_WriteMem(4 bytes @ 0xE0001054) -- CPU_WriteMem(4 bytes @ 0xE0001058) -- CPU_ReadMem(4 bytes @ 0xE0001000) -- CPU_WriteMem(4 bytes @ 0xE000EDFC) -- CPU_WriteMem(4 bytes @ 0xE0001058) -- CPU_ReadMem(4 bytes @ 0x00000004) -- CPU_ReadMem(4 bytes @ 0xE0002000)
 -- CPU_ReadMem(4 bytes @ 0xE0002008) -- CPU_ReadMem(4 bytes @ 0xE000200C) -- CPU_ReadMem(4 bytes @ 0xE0002010) -- CPU_ReadMem(4 bytes @ 0xE0002014) -- CPU_ReadMem(4 bytes @ 0xE0002018) -- CPU_ReadMem(4 bytes @ 0xE000201C) -- CPU_WriteMem(4 bytes @ 0xE0002000) -- CPU_WriteMem(4 bytes @ 0xE0002008) -- CPU_WriteMem(4 bytes @ 0xE000200C) -- CPU_WriteMem(4 bytes @ 0xE0002010) -- CPU_WriteMem(4 bytes @ 0xE0002014) -- CPU_WriteMem(4 bytes @ 0xE0002018) -- CPU_WriteMem(4 bytes @ 0xE000201C)
 -- CPU_ReadMem(4 bytes @ 0xE0001000) -- CPU_ReadMem(4 bytes @ 0x400FC040) -- CPU_WriteMem(4 bytes @ 0xE0002000) -- CPU_WriteMem(4 bytes @ 0xE0002008) -- CPU_WriteMem(4 bytes @ 0xE000200C) -- CPU_WriteMem(4 bytes @ 0xE0002010) -- CPU_WriteMem(4 bytes @ 0xE0002014) -- CPU_WriteMem(4 bytes @ 0xE0002018) -- CPU_WriteMem(4 bytes @ 0xE000201C) -- CPU_WriteMem(4 bytes @ 0xE0002000) -- CPU_ReadMem(4 bytes @ 0xE000EDFC) -- CPU_ReadMem(4 bytes @ 0xE0001000) (0269ms, 0888ms total)
T043C 000:902 JLINK_ReadReg(R15 (PC))  returns 0x00000168 (0000ms, 0888ms total)
T043C 000:902 JLINK_ReadReg(XPSR)  returns 0x61000000 (0000ms, 0888ms total)
T043C 000:902 JLINK_Halt()  returns 0x00 (0000ms, 0888ms total)
T043C 000:902 JLINK_IsHalted()  returns TRUE (0000ms, 0888ms total)
T043C 000:902 JLINK_ReadMemU32(0xE000EDF0, 0x0001 Items, ...) -- CPU_ReadMem(4 bytes @ 0xE000EDF0) - Data: 03 00 03 00  returns 0x01 (0001ms, 0889ms total)
T043C 000:903 JLINK_WriteU32(0xE000EDF0, 0xA05F0003) -- CPU_WriteMem(4 bytes @ 0xE000EDF0)  returns 0x00 (0001ms, 0890ms total)
T043C 000:904 JLINK_WriteU32(0xE000EDFC, 0x01000000) -- CPU_WriteMem(4 bytes @ 0xE000EDFC)  returns 0x00 (0001ms, 0891ms total)
T043C 000:905 JLINK_GetHWStatus(...)  returns 0x00 (0001ms, 0892ms total)
T043C 000:906 JLINK_GetNumBPUnits(Type = 0xFFFFFF00)  returns 0x06 (0000ms, 0892ms total)
T043C 000:906 JLINK_GetNumBPUnits(Type = 0xF0)  returns 0x2000 (0000ms, 0892ms total)
T043C 000:906 JLINK_GetNumWPUnits()  returns 0x04 (0000ms, 0892ms total)
T043C 000:906 JLINK_GetSpeed()  returns 0xFA0 (0000ms, 0892ms total)
T043C 000:906 JLINK_ReadMemU32(0xE000E004, 0x0001 Items, ...) -- CPU_ReadMem(4 bytes @ 0xE000E004) - Data: 01 00 00 00  returns 0x01 (0001ms, 0893ms total)
T043C 000:907 JLINK_ReadMemU32(0xE000E004, 0x0001 Items, ...) -- CPU_ReadMem(4 bytes @ 0xE000E004) - Data: 01 00 00 00  returns 0x01 (0001ms, 0894ms total)
T043C 000:908 JLINK_WriteMem(0xE0001000, 0x001C Bytes, ...) - Data: 01 00 00 00 00 00 00 00 00 00 00 00 00 00 00 00 ... -- CPU_WriteMem(28 bytes @ 0xE0001000)  returns 0x1C (0002ms, 0896ms total)
T043C 000:910 JLINK_ReadMem (0xE0001000, 0x001C Bytes, ...) -- CPU_ReadMem(28 bytes @ 0xE0001000) - Data: 01 00 00 40 00 00 00 00 00 00 00 00 00 00 00 00 ...  returns 0x00 (0001ms, 0897ms total)
T043C 000:911 JLINK_ReadReg(R15 (PC))  returns 0x00000168 (0000ms, 0897ms total)
T043C 000:911 JLINK_ReadReg(XPSR)  returns 0x61000000 (0000ms, 0897ms total)
T043C 000:911 JLINK_WriteU32(0xE0041FB0, 0xC5ACCE55) -- CPU_WriteMem(4 bytes @ 0xE0041FB0)  returns 0x00 (0001ms, 0898ms total)
T043C 000:912 JLINK_ReadMemU32(0xE0041000, 0x0001 Items, ...) -- CPU_ReadMem(4 bytes @ 0xE0041000) - Data: 01 00 00 00  returns 0x01 (0001ms, 0899ms total)
T043C 000:913 JLINK_WriteU32(0xE0041000, 0x00000000) -- CPU_WriteMem(4 bytes @ 0xE0041000)  returns 0x00 (0001ms, 0900ms total)
T043C 000:914 JLINK_SWO_Control(JLINKARM_SWO_CMD_GET_SPEED_INFO, ...)  returns 0x00 (0002ms, 0902ms total)
T043C 000:916 JLINK_SWO_Control(JLINKARM_SWO_CMD_STOP, ...)  returns 0x00 (0000ms, 0902ms total)
T043C 000:916 JLINK_SWO_Control(JLINKARM_SWO_CMD_START, ...) -- UART -- 1500000bps  returns 0x00 (0005ms, 0907ms total)
T043C 000:921 JLINK_WriteU32(0xE0040004, 0x00000001) -- CPU_WriteMem(4 bytes @ 0xE0040004)  returns 0x00 (0001ms, 0908ms total)
T043C 000:923 JLINK_WriteU32(0xE0040010, 0x00000007)  returns 0x00 (0000ms, 0908ms total)
T043C 000:923 JLINK_WriteU32(0xE00400F0, 0x00000002)  returns 0x00 (0000ms, 0908ms total)
T043C 000:923 JLINK_WriteU32(0xE0040304, 0x00000000)  returns 0x00 (0000ms, 0908ms total)
T043C 000:923 JLINK_WriteU32(0xE0000FB0, 0xC5ACCE55) -- CPU_WriteMem(4 bytes @ 0xE0000FB0)  returns 0x00 (0001ms, 0909ms total)
T043C 000:924 JLINK_WriteU32(0xE0000E80, 0x0001000D)  returns 0x00 (0000ms, 0909ms total)
T043C 000:924 JLINK_WriteU32(0xE0000E00, 0xFFFFFFFF)  returns 0x00 (0000ms, 0909ms total)
T043C 000:924 JLINK_WriteU32(0xE0000E40, 0x00000008)  returns 0x00 (0000ms, 0909ms total)
T043C 000:924 JLINK_WriteU32(0xE0001000, 0x0001061F)  returns 0x00 (0000ms, 0909ms total)
T043C 000:969 JLINK_WriteU8(0x400FC040, 0x01) -- CPU_WriteMem(1 bytes @ 0x400FC040)  returns 0x00 (0001ms, 0910ms total)
T043C 001:026 JLINK_SetResetType(JLINKARM_RESET_TYPE_NORMAL)  returns ??? (0000ms, 0910ms total)
T043C 001:026 JLINK_Reset() -- CPU_WriteMem(4 bytes @ 0xE0000E00) -- CPU_WriteMem(4 bytes @ 0xE0000E40) -- CPU_WriteMem(4 bytes @ 0xE0000E80) -- CPU_WriteMem(4 bytes @ 0xE0001000) -- CPU_WriteMem(4 bytes @ 0xE0040010) -- CPU_WriteMem(4 bytes @ 0xE00400F0) -- CPU_WriteMem(4 bytes @ 0xE0040304) -- CPU_WriteMem(4 bytes @ 0xE000EDF0) -- CPU_WriteMem(4 bytes @ 0xE000EDFC) >0x35 TIF> -- CPU_WriteMem(4 bytes @ 0xE000ED0C) -- CPU_ReadMem(4 bytes @ 0xE000EDF0) -- CPU_ReadMem(4 bytes @ 0xE000EDF0)
 -- CPU_WriteMem(4 bytes @ 0xE000EDF0) -- CPU_WriteMem(4 bytes @ 0xE000EDFC) -- CPU is running -- CPU_ReadMem(4 bytes @ 0xE000EDF0) -- CPU_WriteMem(4 bytes @ 0xE000EDFC) -- CPU_WriteMem(4 bytes @ 0xE000EDFC) -- CPU_WriteMem(4 bytes @ 0xE000EDFC) -- CPU_WriteMem(4 bytes @ 0xE000EDFC) -- CPU_WriteMem(4 bytes @ 0xE000EDFC) -- CPU_WriteMem(4 bytes @ 0xE0001050) -- CPU_WriteMem(4 bytes @ 0xE0001054) -- CPU_WriteMem(4 bytes @ 0xE0001058) -- CPU_ReadMem(4 bytes @ 0xE0001000)
 -- CPU_WriteMem(4 bytes @ 0xE000EDFC) -- CPU_WriteMem(4 bytes @ 0xE0001058) -- CPU_ReadMem(4 bytes @ 0x00000004) -- CPU_ReadMem(4 bytes @ 0xE0002000) -- CPU_ReadMem(4 bytes @ 0xE0002008) -- CPU_ReadMem(4 bytes @ 0xE000200C) -- CPU_ReadMem(4 bytes @ 0xE0002010) -- CPU_ReadMem(4 bytes @ 0xE0002014) -- CPU_ReadMem(4 bytes @ 0xE0002018) -- CPU_ReadMem(4 bytes @ 0xE000201C) -- CPU_WriteMem(4 bytes @ 0xE0002000) -- CPU_WriteMem(4 bytes @ 0xE0002008) -- CPU_WriteMem(4 bytes @ 0xE000200C)
 -- CPU_WriteMem(4 bytes @ 0xE0002010) -- CPU_WriteMem(4 bytes @ 0xE0002014) -- CPU_WriteMem(4 bytes @ 0xE0002018) -- CPU_WriteMem(4 bytes @ 0xE000201C) -- CPU_ReadMem(4 bytes @ 0xE0001000) -- CPU_ReadMem(4 bytes @ 0x400FC040) -- CPU_WriteMem(4 bytes @ 0xE0002000) -- CPU_WriteMem(4 bytes @ 0xE0002008) -- CPU_WriteMem(4 bytes @ 0xE000200C) -- CPU_WriteMem(4 bytes @ 0xE0002010) -- CPU_WriteMem(4 bytes @ 0xE0002014) -- CPU_WriteMem(4 bytes @ 0xE0002018) -- CPU_WriteMem(4 bytes @ 0xE000201C)
 -- CPU_WriteMem(4 bytes @ 0xE0002000) -- CPU_ReadMem(4 bytes @ 0xE000EDFC) -- CPU_ReadMem(4 bytes @ 0xE0001000) (0277ms, 1187ms total)
T043C 001:305 JLINK_WriteU32(0xE000EDFC, 0x01000000) -- CPU_WriteMem(4 bytes @ 0xE000EDFC)  returns 0x00 (0001ms, 1188ms total)
T043C 001:306 JLINK_ReadReg(R15 (PC))  returns 0x00000168 (0000ms, 1188ms total)
T043C 001:306 JLINK_ReadReg(XPSR)  returns 0x61000000 (0000ms, 1188ms total)
T043C 001:337 JLINK_ReadMem (0x00000168, 0x003C Bytes, ...) -- CPU_ReadMem(4 bytes @ 0x400FC040) -- CPU_ReadMem(128 bytes @ 0x00000140) -- Updating C cache (128 bytes @ 0x00000140) -- Read from C cache (60 bytes @ 0x00000168) - Data: 09 48 80 47 09 48 00 47 FE E7 FE E7 FE E7 FE E7 ...  returns 0x00 (0003ms, 1191ms total)
T043C 001:396 JLINK_WriteU32(0xE0001008, 0x00000000)  returns 0x00 (0000ms, 1191ms total)
T043C 001:396 JLINK_WriteU32(0xE000100C, 0x00000000)  returns 0x00 (0000ms, 1191ms total)
T043C 001:396 JLINK_WriteU32(0xE0001010, 0x00000000)  returns 0x00 (0000ms, 1191ms total)
T043C 001:396 JLINK_WriteU32(0xE0001014, 0x00000000)  returns 0x00 (0000ms, 1191ms total)
T043C 001:396 JLINK_WriteU32(0xE0001018, 0x00000000)  returns 0x00 (0000ms, 1191ms total)
T043C 001:425 JLINK_ReadMem (0x2009C000, 0x0004 Bytes, ...) -- CPU_ReadMem(4 bytes @ 0x2009C000) - Data: 00 00 00 00  returns 0x00 (0001ms, 1192ms total)
T043C 001:426 JLINK_ReadMem (0x2009C010, 0x0004 Bytes, ...) -- CPU_ReadMem(4 bytes @ 0x2009C010) - Data: 00 00 00 00  returns 0x00 (0001ms, 1193ms total)
T043C 001:427 JLINK_ReadMem (0x2009C014, 0x0004 Bytes, ...) -- CPU_ReadMem(4 bytes @ 0x2009C014) - Data: FF 8F FF 1F  returns 0x00 (0001ms, 1194ms total)
T043C 001:428 JLINK_ReadMem (0x2009C018, 0x0004 Bytes, ...) -- CPU_ReadMem(4 bytes @ 0x2009C018) - Data: 00 00 00 00  returns 0x00 (0001ms, 1195ms total)
T043C 001:429 JLINK_ReadMem (0x2009C020, 0x0004 Bytes, ...) -- CPU_ReadMem(4 bytes @ 0x2009C020) - Data: 00 00 00 00  returns 0x00 (0001ms, 1196ms total)
T043C 001:431 JLINK_ReadMem (0x2009C030, 0x0004 Bytes, ...) -- CPU_ReadMem(4 bytes @ 0x2009C030) - Data: 00 00 00 00  returns 0x00 (0001ms, 1197ms total)
T043C 001:432 JLINK_ReadMem (0x2009C034, 0x0004 Bytes, ...) -- CPU_ReadMem(4 bytes @ 0x2009C034) - Data: 13 C7 FF FF  returns 0x00 (0001ms, 1198ms total)
T043C 001:433 JLINK_ReadMem (0x2009C038, 0x0004 Bytes, ...) -- CPU_ReadMem(4 bytes @ 0x2009C038) - Data: 00 00 00 00  returns 0x00 (0001ms, 1199ms total)
T043C 001:434 JLINK_ReadMem (0x2009C040, 0x0004 Bytes, ...) -- CPU_ReadMem(4 bytes @ 0x2009C040) - Data: 00 00 00 00  returns 0x00 (0001ms, 1200ms total)
T043C 001:435 JLINK_ReadMem (0x2009C050, 0x0004 Bytes, ...) -- CPU_ReadMem(4 bytes @ 0x2009C050) - Data: 00 00 00 00  returns 0x00 (0001ms, 1201ms total)
T043C 001:437 JLINK_ReadMem (0x2009C054, 0x0004 Bytes, ...) -- CPU_ReadMem(4 bytes @ 0x2009C054) - Data: FF 3F 00 00  returns 0x00 (0001ms, 1202ms total)
T043C 001:438 JLINK_ReadMem (0x2009C058, 0x0004 Bytes, ...) -- CPU_ReadMem(4 bytes @ 0x2009C058) - Data: 00 00 00 00  returns 0x00 (0001ms, 1203ms total)
T043C 001:439 JLINK_ReadMem (0x2009C060, 0x0004 Bytes, ...) -- CPU_ReadMem(4 bytes @ 0x2009C060) - Data: 00 00 00 00  returns 0x00 (0001ms, 1204ms total)
T043C 001:440 JLINK_ReadMem (0x2009C070, 0x0004 Bytes, ...) -- CPU_ReadMem(4 bytes @ 0x2009C070) - Data: 00 00 00 00  returns 0x00 (0001ms, 1205ms total)
T043C 001:441 JLINK_ReadMem (0x2009C074, 0x0004 Bytes, ...) -- CPU_ReadMem(4 bytes @ 0x2009C074) - Data: 00 00 00 06  returns 0x00 (0001ms, 1206ms total)
T043C 001:443 JLINK_ReadMem (0x2009C078, 0x0004 Bytes, ...) -- CPU_ReadMem(4 bytes @ 0x2009C078) - Data: 00 00 00 00  returns 0x00 (0001ms, 1207ms total)
T043C 001:444 JLINK_ReadMem (0x2009C080, 0x0004 Bytes, ...) -- CPU_ReadMem(4 bytes @ 0x2009C080) - Data: 00 00 00 00  returns 0x00 (0001ms, 1208ms total)
T043C 001:445 JLINK_ReadMem (0x2009C090, 0x0004 Bytes, ...) -- CPU_ReadMem(4 bytes @ 0x2009C090) - Data: 00 00 00 00  returns 0x00 (0001ms, 1209ms total)
T043C 001:446 JLINK_ReadMem (0x2009C094, 0x0004 Bytes, ...) -- CPU_ReadMem(4 bytes @ 0x2009C094) - Data: 00 00 00 30  returns 0x00 (0001ms, 1210ms total)
T043C 001:447 JLINK_ReadMem (0x2009C098, 0x0004 Bytes, ...) -- CPU_ReadMem(4 bytes @ 0x2009C098) - Data: 00 00 00 00  returns 0x00 (0001ms, 1211ms total)
T043C 001:467 JLINK_ReadMem (0x4001C000, 0x0014 Bytes, ...) -- CPU_ReadMem(20 bytes @ 0x4001C000) - Data: 00 00 00 00 F8 00 00 00 00 00 00 00 00 00 00 00 ...  returns 0x00 (0001ms, 1212ms total)
T043C 001:468 JLINK_ReadMem (0x4001C014, 0x0004 Bytes, ...) -- CPU_ReadMem(4 bytes @ 0x4001C014) - Data: 04 00 00 00  returns 0x00 (0001ms, 1213ms total)
T043C 001:469 JLINK_ReadMem (0x4001C01C, 0x0020 Bytes, ...) -- CPU_ReadMem(32 bytes @ 0x4001C01C) - Data: 00 00 00 00 00 00 00 00 00 00 00 00 00 00 00 00 ...  returns 0x00 (0001ms, 1214ms total)
T043C 001:470 JLINK_ReadMem (0x4001C03C, 0x0004 Bytes, ...) -- CPU_ReadMem(4 bytes @ 0x4001C03C) - Data: 00 00 00 00  returns 0x00 (0001ms, 1215ms total)
T043C 001:491 JLINK_ReadMem (0x4002C000, 0x0010 Bytes, ...) -- CPU_ReadMem(16 bytes @ 0x4002C000) - Data: 00 00 00 00 00 00 00 00 00 00 00 00 00 00 00 00  returns 0x00 (0002ms, 1217ms total)
T043C 001:493 JLINK_ReadMem (0x4002C010, 0x0004 Bytes, ...) -- CPU_ReadMem(4 bytes @ 0x4002C010) - Data: 00 00 00 00  returns 0x00 (0001ms, 1218ms total)
T043C 001:494 JLINK_ReadMem (0x4002C01C, 0x0004 Bytes, ...) -- CPU_ReadMem(4 bytes @ 0x4002C01C) - Data: 00 00 00 00  returns 0x00 (0001ms, 1219ms total)
T043C 001:495 JLINK_ReadMem (0x4002C024, 0x0004 Bytes, ...) -- CPU_ReadMem(4 bytes @ 0x4002C024) - Data: 00 00 00 00  returns 0x00 (0001ms, 1220ms total)
T043C 001:497 JLINK_ReadMem (0x4002C028, 0x0004 Bytes, ...) -- CPU_ReadMem(4 bytes @ 0x4002C028) - Data: 00 00 00 00  returns 0x00 (0001ms, 1221ms total)
T043C 001:498 JLINK_ReadMem (0x4002C040, 0x0010 Bytes, ...) -- CPU_ReadMem(16 bytes @ 0x4002C040) - Data: 00 00 00 00 00 00 00 00 00 00 00 00 00 00 00 00  returns 0x00 (0001ms, 1222ms total)
T043C 001:499 JLINK_ReadMem (0x4002C050, 0x0004 Bytes, ...) -- CPU_ReadMem(4 bytes @ 0x4002C050) - Data: 00 00 00 00  returns 0x00 (0001ms, 1223ms total)
T043C 001:500 JLINK_ReadMem (0x4002C05C, 0x0004 Bytes, ...) -- CPU_ReadMem(4 bytes @ 0x4002C05C) - Data: 00 00 00 00  returns 0x00 (0001ms, 1224ms total)
T043C 001:501 JLINK_ReadMem (0x4002C064, 0x0018 Bytes, ...) -- CPU_ReadMem(24 bytes @ 0x4002C064) - Data: 00 00 00 00 00 00 00 00 00 00 00 00 00 00 00 00 ...  returns 0x00 (0001ms, 1225ms total)
T043C 001:503 JLINK_ReadMem (0x4002C07C, 0x0004 Bytes, ...) -- CPU_ReadMem(4 bytes @ 0x4002C07C) - Data: 00 00 00 00  returns 0x00 (0001ms, 1226ms total)
T043C 001:521 JLINK_ReadMem (0x40024000, 0x0004 Bytes, ...) -- CPU_ReadMem(4 bytes @ 0x40024000) - Data: 01 00 00 00  returns 0x00 (0002ms, 1228ms total)
T043C 001:523 JLINK_ReadMem (0x40024008, 0x004C Bytes, ...) -- CPU_ReadMem(76 bytes @ 0x40024008) - Data: 11 00 00 00 01 00 00 00 00 00 00 00 13 31 0C 05 ...  returns 0x00 (0002ms, 1230ms total)
T043C 001:525 JLINK_ReadMem (0x40024054, 0x0004 Bytes, ...) -- CPU_ReadMem(4 bytes @ 0x40024054) - Data: 2C 3F 4D E0  returns 0x00 (0001ms, 1231ms total)
T043C 001:527 JLINK_ReadMem (0x40024058, 0x0004 Bytes, ...) -- CPU_ReadMem(4 bytes @ 0x40024058) - Data: 00 00 00 00  returns 0x00 (0001ms, 1232ms total)
T043C 001:528 JLINK_ReadMem (0x4002405C, 0x0004 Bytes, ...) -- CPU_ReadMem(4 bytes @ 0x4002405C) - Data: 10 00 00 00  returns 0x00 (0001ms, 1233ms total)
T043C 001:529 JLINK_ReadMem (0x40024060, 0x001C Bytes, ...) -- CPU_ReadMem(28 bytes @ 0x40024060) - Data: 0F 00 00 00 2B 00 00 00 0C 00 00 00 1A 00 00 00 ...  returns 0x00 (0001ms, 1234ms total)
T043C 001:530 JLINK_ReadMem (0x4002407C, 0x0004 Bytes, ...) -- CPU_ReadMem(4 bytes @ 0x4002407C) - Data: E2 07 00 00  returns 0x00 (0001ms, 1235ms total)
T043C 001:552 JLINK_ReadMem (0x40004000, 0x0030 Bytes, ...) -- CPU_ReadMem(48 bytes @ 0x40004000) - Data: 00 00 00 00 00 00 00 00 00 00 00 00 00 00 00 00 ...  returns 0x00 (0002ms, 1237ms total)
T043C 001:554 JLINK_ReadMem (0x40004030, 0x0004 Bytes, ...) -- CPU_ReadMem(4 bytes @ 0x40004030) - Data: 00 00 00 00  returns 0x00 (0001ms, 1238ms total)
T043C 001:555 JLINK_ReadMem (0x4000403C, 0x0004 Bytes, ...) -- CPU_ReadMem(4 bytes @ 0x4000403C) - Data: 00 00 00 00  returns 0x00 (0001ms, 1239ms total)
T043C 001:557 JLINK_ReadMem (0x40004070, 0x0004 Bytes, ...) -- CPU_ReadMem(4 bytes @ 0x40004070) - Data: 00 00 00 00  returns 0x00 (0001ms, 1240ms total)
T1DF0 003:011 JLINK_SetBPEx(Addr = 0x00000B60, Type = 0xFFFFFFF2)  returns 0x00000001 (0001ms, 1241ms total)
T1DF0 003:012 JLINK_SetBPEx(Addr = 0x00000946, Type = 0xFFFFFFF2)  returns 0x00000002 (0000ms, 1241ms total)
T1DF0 003:012 JLINK_ReadMemU32(0xE0001004, 0x0001 Items, ...) -- CPU_ReadMem(4 bytes @ 0xE0001004) - Data: 04 04 00 00  returns 0x01 (0001ms, 1242ms total)
T1DF0 003:013 JLINK_WriteU32(0xE0001004, 0x000003FF) -- CPU_WriteMem(4 bytes @ 0xE0001004)  returns 0x00 (0001ms, 1243ms total)
T1DF0 003:014 JLINK_WriteU32(0xE0001000, 0x0041061F)  returns 0x00 (0000ms, 1243ms total)
T1DF0 003:014 JLINK_WriteU32(0xE0000E80, 0x0001000F)  returns 0x00 (0000ms, 1243ms total)
T1DF0 003:014 JLINK_SWO_Control(JLINKARM_SWO_CMD_GET_NUM_BYTES, ...)  returns 0x02 (0000ms, 1243ms total)
T1DF0 003:014 JLINK_SWO_Control(JLINKARM_SWO_CMD_FLUSH, ...)  returns 0x00 (0000ms, 1243ms total)
T1DF0 003:014 JLINK_Go() -- CPU_WriteMem(4 bytes @ 0xE0002000) -- CPU_WriteMem(4 bytes @ 0xE0002000) -- CPU_WriteMem(4 bytes @ 0xE0001000) -- CPU_ReadMem(4 bytes @ 0xE0001000) -- CPU_WriteMem(4 bytes @ 0xE0000E80) -- CPU_WriteMem(4 bytes @ 0xE0001008) -- CPU_WriteMem(4 bytes @ 0xE000100C) -- CPU_WriteMem(4 bytes @ 0xE0001010) -- CPU_WriteMem(4 bytes @ 0xE0001014) -- CPU_WriteMem(4 bytes @ 0xE0001018) -- CPU_WriteMem(4 bytes @ 0xE0002008) -- CPU_WriteMem(4 bytes @ 0xE000200C)
 -- CPU_WriteMem(4 bytes @ 0xE0002010) -- CPU_WriteMem(4 bytes @ 0xE0002014) -- CPU_WriteMem(4 bytes @ 0xE0002018) -- CPU_WriteMem(4 bytes @ 0xE000201C) -- CPU_WriteMem(4 bytes @ 0xE0001004) (0019ms, 1262ms total)
T1DF0 003:035 JLINK_WriteU32(0xE0001000, 0x0001061F) -- CPU is running -- CPU_WriteMem(4 bytes @ 0xE0001000)  returns 0x00 (0001ms, 1263ms total)
T1DF0 003:136 JLINK_SWO_Read(..., Offset = 0x00, NumBytes = 0x400000) - Data: 00 00 00 1C  NumBytesRead = 0x04 (0000ms, 1263ms total)
T1DF0 003:138 JLINK_SWO_Control(JLINKARM_SWO_CMD_FLUSH, ...)  returns 0x00 (0000ms, 1263ms total)
T1DF0 003:138 JLINK_IsHalted()  returns TRUE (0004ms, 1267ms total)
T1DF0 003:142 JLINK_Halt()  returns 0x00 (0000ms, 1263ms total)
T1DF0 003:142 JLINK_IsHalted()  returns TRUE (0000ms, 1263ms total)
T1DF0 003:142 JLINK_IsHalted()  returns TRUE (0000ms, 1263ms total)
T1DF0 003:142 JLINK_IsHalted()  returns TRUE (0000ms, 1263ms total)
T1DF0 003:142 JLINK_ReadReg(R15 (PC))  returns 0x00000B60 (0000ms, 1263ms total)
T1DF0 003:142 JLINK_ReadReg(XPSR)  returns 0x21000000 (0000ms, 1263ms total)
T1DF0 003:142 JLINK_SWO_Read(..., Offset = 0x00, NumBytes = 0x400000) - Data:  NumBytesRead = 0x00 (0000ms, 1263ms total)
T1DF0 003:143 JLINK_SWO_Control(JLINKARM_SWO_CMD_FLUSH, ...)  returns 0x00 (0000ms, 1263ms total)
T1DF0 003:143 JLINK_ClrBPEx(BPHandle = 0x00000001)  returns 0x00 (0000ms, 1263ms total)
T1DF0 003:143 JLINK_ClrBPEx(BPHandle = 0x00000002)  returns 0x00 (0000ms, 1263ms total)
T1DF0 003:143 JLINK_ReadMemU32(0xE000ED30, 0x0001 Items, ...) -- CPU_ReadMem(4 bytes @ 0xE000ED30) - Data: 03 00 00 00  returns 0x01 (0001ms, 1264ms total)
T1DF0 003:144 JLINK_ReadMemU32(0xE0001028, 0x0001 Items, ...) -- CPU_ReadMem(4 bytes @ 0xE0001028) - Data: 00 00 00 00  returns 0x01 (0001ms, 1265ms total)
T1DF0 003:145 JLINK_ReadMemU32(0xE0001038, 0x0001 Items, ...) -- CPU_ReadMem(4 bytes @ 0xE0001038) - Data: 00 02 00 00  returns 0x01 (0001ms, 1266ms total)
T1DF0 003:146 JLINK_ReadMemU32(0xE0001048, 0x0001 Items, ...) -- CPU_ReadMem(4 bytes @ 0xE0001048) - Data: 00 00 00 00  returns 0x01 (0001ms, 1267ms total)
T1DF0 003:147 JLINK_ReadMemU32(0xE0001058, 0x0001 Items, ...) -- CPU_ReadMem(4 bytes @ 0xE0001058) - Data: 00 00 00 01  returns 0x01 (0001ms, 1268ms total)
T1DF0 003:149 JLINK_ReadReg(R0)  returns 0x100000B8 (0000ms, 1268ms total)
T1DF0 003:149 JLINK_ReadReg(R1)  returns 0x100000B8 (0000ms, 1268ms total)
T1DF0 003:149 JLINK_ReadReg(R2)  returns 0x100000B8 (0000ms, 1268ms total)
T1DF0 003:149 JLINK_ReadReg(R3)  returns 0x100000B8 (0000ms, 1268ms total)
T1DF0 003:149 JLINK_ReadReg(R4)  returns 0x00000000 (0000ms, 1268ms total)
T1DF0 003:149 JLINK_ReadReg(R5)  returns 0x10000054 (0000ms, 1268ms total)
T1DF0 003:149 JLINK_ReadReg(R6)  returns 0x00000000 (0000ms, 1268ms total)
T1DF0 003:149 JLINK_ReadReg(R7)  returns 0x00000000 (0000ms, 1268ms total)
T1DF0 003:149 JLINK_ReadReg(R8)  returns 0x00000000 (0000ms, 1268ms total)
T1DF0 003:149 JLINK_ReadReg(R9)  returns 0x100001DC (0000ms, 1268ms total)
T1DF0 003:149 JLINK_ReadReg(R10)  returns 0x00000B98 (0000ms, 1268ms total)
T1DF0 003:149 JLINK_ReadReg(R11)  returns 0x00000000 (0000ms, 1268ms total)
T1DF0 003:149 JLINK_ReadReg(R12)  returns 0x10000094 (0000ms, 1268ms total)
T1DF0 003:149 JLINK_ReadReg(R13 (SP))  returns 0x100002B8 (0000ms, 1268ms total)
T1DF0 003:149 JLINK_ReadReg(R14)  returns 0x00000157 (0000ms, 1268ms total)
T1DF0 003:149 JLINK_ReadReg(R15 (PC))  returns 0x00000B60 (0000ms, 1268ms total)
T1DF0 003:149 JLINK_ReadReg(XPSR)  returns 0x21000000 (0000ms, 1268ms total)
T1DF0 003:149 JLINK_ReadReg(MSP)  returns 0x100002B8 (0000ms, 1268ms total)
T1DF0 003:149 JLINK_ReadReg(PSP)  returns 0x10000FE0 (0000ms, 1268ms total)
T1DF0 003:149 JLINK_ReadReg(CFBP)  returns 0x00000000 (0000ms, 1268ms total)
T043C 003:152 JLINK_ReadMem (0x40004000, 0x0030 Bytes, ...) -- CPU_ReadMem(48 bytes @ 0x40004000) - Data: 00 00 00 00 00 00 00 00 00 00 00 00 00 00 00 00 ...  returns 0x00 (0002ms, 1270ms total)
T043C 003:155 JLINK_ReadMem (0x40004030, 0x0004 Bytes, ...) -- CPU_ReadMem(4 bytes @ 0x40004030) - Data: 00 00 00 00  returns 0x00 (0001ms, 1271ms total)
T043C 003:156 JLINK_ReadMem (0x4000403C, 0x0004 Bytes, ...) -- CPU_ReadMem(4 bytes @ 0x4000403C) - Data: 00 00 00 00  returns 0x00 (0001ms, 1272ms total)
T043C 003:157 JLINK_ReadMem (0x40004070, 0x0004 Bytes, ...) -- CPU_ReadMem(4 bytes @ 0x40004070) - Data: 00 00 00 00  returns 0x00 (0001ms, 1273ms total)
T043C 003:158 JLINK_ReadMem (0x4002C000, 0x0010 Bytes, ...) -- CPU_ReadMem(16 bytes @ 0x4002C000) - Data: 00 00 00 00 00 00 00 00 00 00 00 00 00 00 00 00  returns 0x00 (0001ms, 1274ms total)
T043C 003:159 JLINK_ReadMem (0x4002C010, 0x0004 Bytes, ...) -- CPU_ReadMem(4 bytes @ 0x4002C010) - Data: 00 00 00 00  returns 0x00 (0001ms, 1275ms total)
T043C 003:161 JLINK_ReadMem (0x4002C01C, 0x0004 Bytes, ...) -- CPU_ReadMem(4 bytes @ 0x4002C01C) - Data: 00 00 00 00  returns 0x00 (0001ms, 1276ms total)
T043C 003:162 JLINK_ReadMem (0x4002C024, 0x0004 Bytes, ...) -- CPU_ReadMem(4 bytes @ 0x4002C024) - Data: 00 00 00 00  returns 0x00 (0001ms, 1277ms total)
T043C 003:163 JLINK_ReadMem (0x4002C028, 0x0004 Bytes, ...) -- CPU_ReadMem(4 bytes @ 0x4002C028) - Data: 00 00 00 00  returns 0x00 (0001ms, 1278ms total)
T043C 003:164 JLINK_ReadMem (0x4002C040, 0x0010 Bytes, ...) -- CPU_ReadMem(16 bytes @ 0x4002C040) - Data: 00 00 00 00 00 00 00 00 00 00 00 00 00 00 00 00  returns 0x00 (0001ms, 1279ms total)
T043C 003:165 JLINK_ReadMem (0x4002C050, 0x0004 Bytes, ...) -- CPU_ReadMem(4 bytes @ 0x4002C050) - Data: 00 00 00 00  returns 0x00 (0001ms, 1280ms total)
T043C 003:167 JLINK_ReadMem (0x4002C05C, 0x0004 Bytes, ...) -- CPU_ReadMem(4 bytes @ 0x4002C05C) - Data: 00 00 00 00  returns 0x00 (0001ms, 1281ms total)
T043C 003:168 JLINK_ReadMem (0x4002C064, 0x0018 Bytes, ...) -- CPU_ReadMem(24 bytes @ 0x4002C064) - Data: 00 00 00 00 00 00 00 00 00 00 00 00 00 00 00 00 ...  returns 0x00 (0001ms, 1282ms total)
T043C 003:169 JLINK_ReadMem (0x4002C07C, 0x0004 Bytes, ...) -- CPU_ReadMem(4 bytes @ 0x4002C07C) - Data: 00 00 00 00  returns 0x00 (0001ms, 1283ms total)
T043C 003:170 JLINK_ReadMem (0x2009C000, 0x0004 Bytes, ...) -- CPU_ReadMem(4 bytes @ 0x2009C000) - Data: 00 00 00 00  returns 0x00 (0002ms, 1285ms total)
T043C 003:173 JLINK_ReadMem (0x2009C010, 0x0004 Bytes, ...) -- CPU_ReadMem(4 bytes @ 0x2009C010) - Data: 00 00 00 00  returns 0x00 (0001ms, 1286ms total)
T043C 003:174 JLINK_ReadMem (0x2009C014, 0x0004 Bytes, ...) -- CPU_ReadMem(4 bytes @ 0x2009C014) - Data: FF 8F FF 1F  returns 0x00 (0001ms, 1287ms total)
T043C 003:175 JLINK_ReadMem (0x2009C018, 0x0004 Bytes, ...) -- CPU_ReadMem(4 bytes @ 0x2009C018) - Data: 00 00 00 00  returns 0x00 (0001ms, 1288ms total)
T043C 003:176 JLINK_ReadMem (0x2009C020, 0x0004 Bytes, ...) -- CPU_ReadMem(4 bytes @ 0x2009C020) - Data: 00 00 00 00  returns 0x00 (0001ms, 1289ms total)
T043C 003:177 JLINK_ReadMem (0x2009C030, 0x0004 Bytes, ...) -- CPU_ReadMem(4 bytes @ 0x2009C030) - Data: 00 00 00 00  returns 0x00 (0001ms, 1290ms total)
T043C 003:179 JLINK_ReadMem (0x2009C034, 0x0004 Bytes, ...) -- CPU_ReadMem(4 bytes @ 0x2009C034) - Data: 13 C7 FF FF  returns 0x00 (0001ms, 1291ms total)
T043C 003:180 JLINK_ReadMem (0x2009C038, 0x0004 Bytes, ...) -- CPU_ReadMem(4 bytes @ 0x2009C038) - Data: 00 00 00 00  returns 0x00 (0001ms, 1292ms total)
T043C 003:181 JLINK_ReadMem (0x2009C040, 0x0004 Bytes, ...) -- CPU_ReadMem(4 bytes @ 0x2009C040) - Data: 00 00 00 00  returns 0x00 (0001ms, 1293ms total)
T043C 003:182 JLINK_ReadMem (0x2009C050, 0x0004 Bytes, ...) -- CPU_ReadMem(4 bytes @ 0x2009C050) - Data: 00 00 00 00  returns 0x00 (0001ms, 1294ms total)
T043C 003:183 JLINK_ReadMem (0x2009C054, 0x0004 Bytes, ...) -- CPU_ReadMem(4 bytes @ 0x2009C054) - Data: FF 3F 00 00  returns 0x00 (0001ms, 1295ms total)
T043C 003:185 JLINK_ReadMem (0x2009C058, 0x0004 Bytes, ...) -- CPU_ReadMem(4 bytes @ 0x2009C058) - Data: 00 00 00 00  returns 0x00 (0001ms, 1296ms total)
T043C 003:186 JLINK_ReadMem (0x2009C060, 0x0004 Bytes, ...) -- CPU_ReadMem(4 bytes @ 0x2009C060) - Data: 00 00 00 00  returns 0x00 (0001ms, 1297ms total)
T043C 003:187 JLINK_ReadMem (0x2009C070, 0x0004 Bytes, ...) -- CPU_ReadMem(4 bytes @ 0x2009C070) - Data: 00 00 00 00  returns 0x00 (0001ms, 1298ms total)
T043C 003:188 JLINK_ReadMem (0x2009C074, 0x0004 Bytes, ...) -- CPU_ReadMem(4 bytes @ 0x2009C074) - Data: 00 00 00 06  returns 0x00 (0001ms, 1299ms total)
T043C 003:189 JLINK_ReadMem (0x2009C078, 0x0004 Bytes, ...) -- CPU_ReadMem(4 bytes @ 0x2009C078) - Data: 00 00 00 00  returns 0x00 (0001ms, 1300ms total)
T043C 003:191 JLINK_ReadMem (0x2009C080, 0x0004 Bytes, ...) -- CPU_ReadMem(4 bytes @ 0x2009C080) - Data: 00 00 00 00  returns 0x00 (0001ms, 1301ms total)
T043C 003:192 JLINK_ReadMem (0x2009C090, 0x0004 Bytes, ...) -- CPU_ReadMem(4 bytes @ 0x2009C090) - Data: 00 00 00 00  returns 0x00 (0001ms, 1302ms total)
T043C 003:193 JLINK_ReadMem (0x2009C094, 0x0004 Bytes, ...) -- CPU_ReadMem(4 bytes @ 0x2009C094) - Data: 00 00 00 30  returns 0x00 (0001ms, 1303ms total)
T043C 003:194 JLINK_ReadMem (0x2009C098, 0x0004 Bytes, ...) -- CPU_ReadMem(4 bytes @ 0x2009C098) - Data: 00 00 00 00  returns 0x00 (0001ms, 1304ms total)
T043C 003:197 JLINK_ReadMem (0x4001C000, 0x0014 Bytes, ...) -- CPU_ReadMem(20 bytes @ 0x4001C000) - Data: 00 00 00 00 F8 00 00 00 00 00 00 00 00 00 00 00 ...  returns 0x00 (0001ms, 1305ms total)
T043C 003:198 JLINK_ReadMem (0x4001C014, 0x0004 Bytes, ...) -- CPU_ReadMem(4 bytes @ 0x4001C014) - Data: 04 00 00 00  returns 0x00 (0001ms, 1306ms total)
T043C 003:199 JLINK_ReadMem (0x4001C01C, 0x0020 Bytes, ...) -- CPU_ReadMem(32 bytes @ 0x4001C01C) - Data: 00 00 00 00 00 00 00 00 00 00 00 00 00 00 00 00 ...  returns 0x00 (0001ms, 1307ms total)
T043C 003:200 JLINK_ReadMem (0x4001C03C, 0x0004 Bytes, ...) -- CPU_ReadMem(4 bytes @ 0x4001C03C) - Data: 00 00 00 00  returns 0x00 (0001ms, 1308ms total)
T043C 003:201 JLINK_ReadMem (0x40024000, 0x0004 Bytes, ...) -- CPU_ReadMem(4 bytes @ 0x40024000) - Data: 01 00 00 00  returns 0x00 (0001ms, 1309ms total)
T043C 003:203 JLINK_ReadMem (0x40024008, 0x004C Bytes, ...) -- CPU_ReadMem(76 bytes @ 0x40024008) - Data: 11 00 00 00 01 00 00 00 00 00 00 00 15 31 0C 05 ...  returns 0x00 (0002ms, 1311ms total)
T043C 003:205 JLINK_ReadMem (0x40024054, 0x0004 Bytes, ...) -- CPU_ReadMem(4 bytes @ 0x40024054) - Data: 2C 3F 4D E0  returns 0x00 (0001ms, 1312ms total)
T043C 003:206 JLINK_ReadMem (0x40024058, 0x0004 Bytes, ...) -- CPU_ReadMem(4 bytes @ 0x40024058) - Data: 00 00 00 00  returns 0x00 (0001ms, 1313ms total)
T043C 003:207 JLINK_ReadMem (0x4002405C, 0x0004 Bytes, ...) -- CPU_ReadMem(4 bytes @ 0x4002405C) - Data: 10 00 00 00  returns 0x00 (0001ms, 1314ms total)
T043C 003:209 JLINK_ReadMem (0x40024060, 0x001C Bytes, ...) -- CPU_ReadMem(28 bytes @ 0x40024060) - Data: 0F 00 00 00 2B 00 00 00 0C 00 00 00 1A 00 00 00 ...  returns 0x00 (0001ms, 1315ms total)
T043C 003:210 JLINK_ReadMem (0x4002407C, 0x0004 Bytes, ...) -- CPU_ReadMem(4 bytes @ 0x4002407C) - Data: E2 07 00 00  returns 0x00 (0001ms, 1316ms total)
T043C 003:212 JLINK_ReadMem (0x00000B60, 0x003C Bytes, ...) -- CPU_ReadMem(128 bytes @ 0x00000B40) -- Updating C cache (128 bytes @ 0x00000B40) -- Read from C cache (60 bytes @ 0x00000B60) - Data: FF F7 40 FC FF F7 F6 FB FF F7 E4 FB FF F7 A4 FC ...  returns 0x00 (0003ms, 1319ms total)
T1DF0 003:739 JLINK_SetBPEx(Addr = 0x00000946, Type = 0xFFFFFFF2)  returns 0x00000003 (0000ms, 1319ms total)
T1DF0 003:739 JLINK_ReadMemU32(0xE0001004, 0x0001 Items, ...) -- CPU_ReadMem(4 bytes @ 0xE0001004) - Data: E5 0B 00 00  returns 0x01 (0002ms, 1321ms total)
T1DF0 003:741 JLINK_WriteU32(0xE0001004, 0x000003FF) -- CPU_WriteMem(4 bytes @ 0xE0001004)  returns 0x00 (0001ms, 1322ms total)
T1DF0 003:742 JLINK_WriteU32(0xE0001000, 0x0041061F)  returns 0x00 (0000ms, 1322ms total)
T1DF0 003:742 JLINK_WriteU32(0xE0000E80, 0x0001000F)  returns 0x00 (0000ms, 1322ms total)
T1DF0 003:742 JLINK_SWO_Control(JLINKARM_SWO_CMD_GET_NUM_BYTES, ...)  returns 0x00 (0000ms, 1322ms total)
T1DF0 003:742 JLINK_Go() -- CPU_WriteMem(4 bytes @ 0xE0002000) -- CPU_WriteMem(4 bytes @ 0xE0001000) -- CPU_ReadMem(4 bytes @ 0xE0001000) -- CPU_WriteMem(4 bytes @ 0xE0000E80) -- CPU_WriteMem(4 bytes @ 0xE0002008) -- CPU_WriteMem(4 bytes @ 0xE000200C) (0008ms, 1330ms total)
T1DF0 003:752 JLINK_WriteU32(0xE0001000, 0x0001061F) -- CPU is running -- CPU_WriteMem(4 bytes @ 0xE0001000)  returns 0x00 (0001ms, 1331ms total)
T1DF0 003:854 JLINK_SWO_Read(..., Offset = 0x00, NumBytes = 0x400000) - Data: 00 00 E0 1C FF B0 FD 25 FF 05 C5 05 C5 15 E1 15 ...  NumBytesRead = 0x44 (0000ms, 1331ms total)
T1DF0 003:857 JLINK_SWO_Control(JLINKARM_SWO_CMD_FLUSH, ...)  returns 0x00 (0000ms, 1331ms total)
T1DF0 003:857 JLINK_IsHalted()  returns FALSE (0001ms, 1332ms total)
T1DF0 003:958 JLINK_SWO_Read(..., Offset = 0x00, NumBytes = 0x400000) - Data: 94 15 C5 15 C5 14 E5 05 D5 85 D5 01 C5 28 C5 05 ...  NumBytesRead = 0x40 (0000ms, 1331ms total)
T1DF0 003:959 JLINK_SWO_Control(JLINKARM_SWO_CMD_FLUSH, ...)  returns 0x00 (0000ms, 1331ms total)
T1DF0 003:959 JLINK_IsHalted()  returns FALSE (0001ms, 1332ms total)
T1DF0 004:060 JLINK_SWO_Read(..., Offset = 0x00, NumBytes = 0x400000) - Data: 05 C5 85 F5 01 D5 85 C5 05 C5 15 C1 15 C5 84 E5 ...  NumBytesRead = 0x3D (0000ms, 1331ms total)
T1DF0 004:062 JLINK_SWO_Control(JLINKARM_SWO_CMD_FLUSH, ...)  returns 0x00 (0000ms, 1331ms total)
T1DF0 004:062 JLINK_IsHalted()  returns FALSE (0001ms, 1332ms total)
T1DF0 004:164 JLINK_SWO_Read(..., Offset = 0x00, NumBytes = 0x400000) - Data: D5 85 E5 20 94 15 C1 15 C5 14 C5 05 D5 85 F5 C4 ...  NumBytesRead = 0x3D (0000ms, 1332ms total)
T1DF0 004:166 JLINK_SWO_Control(JLINKARM_SWO_CMD_FLUSH, ...)  returns 0x00 (0000ms, 1332ms total)
T1DF0 004:166 JLINK_IsHalted()  returns FALSE (0002ms, 1334ms total)
T1DF0 004:268 JLINK_SWO_Read(..., Offset = 0x00, NumBytes = 0x400000) - Data: 94 85 E5 15 C5 15 C5 05 D5 05 D5 01 D5 20 A2 05 ...  NumBytesRead = 0x41 (0000ms, 1333ms total)
T1DF0 004:270 JLINK_SWO_Control(JLINKARM_SWO_CMD_FLUSH, ...)  returns 0x00 (0000ms, 1333ms total)
T1DF0 004:270 JLINK_ReadMemU32(0xE0001004, 0x0001 Items, ...) -- CPU is running -- CPU_ReadMem(4 bytes @ 0xE0001004) - Data: DD 12 1B 03  returns 0x01 (0000ms, 1333ms total)
T043C 004:273 JLINK_ReadMem (0x40004000, 0x0030 Bytes, ...) -- CPU is running -- CPU_ReadMem(48 bytes @ 0x40004000) - Data: 00 00 00 00 01 00 00 00 D6 48 00 00 00 00 00 00 ...  returns 0x00 (0001ms, 1334ms total)
T043C 004:276 JLINK_ReadMem (0x40004030, 0x0004 Bytes, ...) -- CPU is running -- CPU_ReadMem(4 bytes @ 0x40004030) - Data: 00 00 00 00  returns 0x00 (0002ms, 1337ms total)
T043C 004:278 JLINK_ReadMem (0x4000403C, 0x0004 Bytes, ...) -- CPU is running -- CPU_ReadMem(4 bytes @ 0x4000403C) - Data: 00 00 00 00  returns 0x00 (0000ms, 1337ms total)
T043C 004:279 JLINK_ReadMem (0x40004070, 0x0004 Bytes, ...) -- CPU is running -- CPU_ReadMem(4 bytes @ 0x40004070) - Data: 00 00 00 00  returns 0x00 (0000ms, 1338ms total)
T043C 004:294 JLINK_ReadMem (0x4002C000, 0x0010 Bytes, ...) -- CPU is running -- CPU_ReadMem(16 bytes @ 0x4002C000) - Data: 04 00 00 00 00 00 00 00 00 00 00 00 00 00 00 00  returns 0x00 (0002ms, 1340ms total)
T043C 004:296 JLINK_ReadMem (0x4002C010, 0x0004 Bytes, ...) -- CPU is running -- CPU_ReadMem(4 bytes @ 0x4002C010) - Data: 00 00 00 01  returns 0x00 (0001ms, 1341ms total)
T043C 004:297 JLINK_ReadMem (0x4002C01C, 0x0004 Bytes, ...) -- CPU is running -- CPU_ReadMem(4 bytes @ 0x4002C01C) - Data: 00 00 00 00  returns 0x00 (0000ms, 1341ms total)
T043C 004:298 JLINK_ReadMem (0x4002C024, 0x0004 Bytes, ...) -- CPU is running -- CPU_ReadMem(4 bytes @ 0x4002C024) - Data: 00 00 00 00  returns 0x00 (0000ms, 1342ms total)
T043C 004:298 JLINK_ReadMem (0x4002C028, 0x0004 Bytes, ...) -- CPU is running -- CPU_ReadMem(4 bytes @ 0x4002C028) - Data: 00 00 00 00  returns 0x00 (0001ms, 1343ms total)
T043C 004:301 JLINK_ReadMem (0x4002C040, 0x0010 Bytes, ...) -- CPU is running -- CPU_ReadMem(16 bytes @ 0x4002C040) - Data: 00 00 00 00 00 00 00 00 0A 00 2A A0 02 AA 2A 00  returns 0x00 (0001ms, 1345ms total)
T043C 004:303 JLINK_ReadMem (0x4002C050, 0x0004 Bytes, ...) -- CPU is running -- CPU_ReadMem(4 bytes @ 0x4002C050) - Data: 00 00 00 00  returns 0x00 (0001ms, 1346ms total)
T043C 004:304 JLINK_ReadMem (0x4002C05C, 0x0004 Bytes, ...) -- CPU is running -- CPU_ReadMem(4 bytes @ 0x4002C05C) - Data: 00 00 00 00  returns 0x00 (0000ms, 1346ms total)
T043C 004:305 JLINK_ReadMem (0x4002C064, 0x0018 Bytes, ...) -- CPU is running -- CPU_ReadMem(24 bytes @ 0x4002C064) - Data: 00 00 00 00 00 00 00 00 00 00 00 00 00 00 00 00 ...  returns 0x00 (0000ms, 1347ms total)
T043C 004:306 JLINK_ReadMem (0x4002C07C, 0x0004 Bytes, ...) -- CPU is running -- CPU_ReadMem(4 bytes @ 0x4002C07C) - Data: 00 00 00 00  returns 0x00 (0000ms, 1347ms total)
T043C 004:308 JLINK_ReadMem (0x2009C000, 0x0004 Bytes, ...) -- CPU is running -- CPU_ReadMem(4 bytes @ 0x2009C000) - Data: 00 00 00 00  returns 0x00 (0001ms, 1349ms total)
T043C 004:310 JLINK_ReadMem (0x2009C010, 0x0004 Bytes, ...) -- CPU is running -- CPU_ReadMem(4 bytes @ 0x2009C010) - Data: 00 00 00 00  returns 0x00 (0001ms, 1350ms total)
T043C 004:311 JLINK_ReadMem (0x2009C014, 0x0004 Bytes, ...) -- CPU is running -- CPU_ReadMem(4 bytes @ 0x2009C014) - Data: FF 8F FF 1F  returns 0x00 (0001ms, 1351ms total)
T043C 004:312 JLINK_ReadMem (0x2009C018, 0x0004 Bytes, ...) -- CPU is running -- CPU_ReadMem(4 bytes @ 0x2009C018) - Data: 00 00 00 00  returns 0x00 (0000ms, 1351ms total)
T043C 004:313 JLINK_ReadMem (0x2009C020, 0x0004 Bytes, ...) -- CPU is running -- CPU_ReadMem(4 bytes @ 0x2009C020) - Data: 03 C7 F1 07  returns 0x00 (0000ms, 1352ms total)
T043C 004:315 JLINK_ReadMem (0x2009C030, 0x0004 Bytes, ...) -- CPU is running -- CPU_ReadMem(4 bytes @ 0x2009C030) - Data: 00 00 00 00  returns 0x00 (0001ms, 1353ms total)
T043C 004:317 JLINK_ReadMem (0x2009C034, 0x0004 Bytes, ...) -- CPU is running -- CPU_ReadMem(4 bytes @ 0x2009C034) - Data: 13 02 0E FC  returns 0x00 (0000ms, 1354ms total)
T043C 004:317 JLINK_ReadMem (0x2009C038, 0x0004 Bytes, ...) -- CPU is running -- CPU_ReadMem(4 bytes @ 0x2009C038) - Data: 03 02 00 04  returns 0x00 (0001ms, 1355ms total)
T043C 004:319 JLINK_ReadMem (0x2009C040, 0x0004 Bytes, ...) -- CPU is running -- CPU_ReadMem(4 bytes @ 0x2009C040) - Data: 00 00 00 00  returns 0x00 (0000ms, 1356ms total)
T043C 004:321 JLINK_ReadMem (0x2009C050, 0x0004 Bytes, ...) -- CPU is running -- CPU_ReadMem(4 bytes @ 0x2009C050) - Data: 00 00 00 00  returns 0x00 (0001ms, 1358ms total)
T043C 004:323 JLINK_ReadMem (0x2009C054, 0x0004 Bytes, ...) -- CPU is running -- CPU_ReadMem(4 bytes @ 0x2009C054) - Data: FF 3F 00 00  returns 0x00 (0000ms, 1359ms total)
T043C 004:324 JLINK_ReadMem (0x2009C058, 0x0004 Bytes, ...) -- CPU is running -- CPU_ReadMem(4 bytes @ 0x2009C058) - Data: 00 00 00 00  returns 0x00 (0000ms, 1360ms total)
T043C 004:324 JLINK_ReadMem (0x2009C060, 0x0004 Bytes, ...) -- CPU is running -- CPU_ReadMem(4 bytes @ 0x2009C060) - Data: 00 00 00 00  returns 0x00 (0002ms, 1362ms total)
T043C 004:327 JLINK_ReadMem (0x2009C070, 0x0004 Bytes, ...) -- CPU is running -- CPU_ReadMem(4 bytes @ 0x2009C070) - Data: 00 00 00 00  returns 0x00 (0001ms, 1363ms total)
T043C 004:329 JLINK_ReadMem (0x2009C074, 0x0004 Bytes, ...) -- CPU is running -- CPU_ReadMem(4 bytes @ 0x2009C074) - Data: 00 00 00 06  returns 0x00 (0000ms, 1363ms total)
T043C 004:330 JLINK_ReadMem (0x2009C078, 0x0004 Bytes, ...) -- CPU is running -- CPU_ReadMem(4 bytes @ 0x2009C078) - Data: 00 00 00 00  returns 0x00 (0001ms, 1365ms total)
T043C 004:331 JLINK_ReadMem (0x2009C080, 0x0004 Bytes, ...) -- CPU is running -- CPU_ReadMem(4 bytes @ 0x2009C080) - Data: 00 00 00 00  returns 0x00 (0000ms, 1365ms total)
T043C 004:332 JLINK_ReadMem (0x2009C090, 0x0004 Bytes, ...) -- CPU is running -- CPU_ReadMem(4 bytes @ 0x2009C090) - Data: 00 00 00 00  returns 0x00 (0000ms, 1365ms total)
T043C 004:334 JLINK_ReadMem (0x2009C094, 0x0004 Bytes, ...) -- CPU is running -- CPU_ReadMem(4 bytes @ 0x2009C094) - Data: 00 00 00 30  returns 0x00 (0001ms, 1366ms total)
T043C 004:336 JLINK_ReadMem (0x2009C098, 0x0004 Bytes, ...) -- CPU is running -- CPU_ReadMem(4 bytes @ 0x2009C098) - Data: 00 00 00 00  returns 0x00 (0000ms, 1366ms total)
T043C 004:340 JLINK_ReadMem (0x4001C000, 0x0014 Bytes, ...) -- CPU is running -- CPU_ReadMem(20 bytes @ 0x4001C000) - Data: 00 00 00 00 F8 00 00 00 00 00 00 00 00 00 00 00 ...  returns 0x00 (0001ms, 1367ms total)
T043C 004:342 JLINK_ReadMem (0x4001C014, 0x0004 Bytes, ...) -- CPU is running -- CPU_ReadMem(4 bytes @ 0x4001C014) - Data: 04 00 00 00  returns 0x00 (0000ms, 1368ms total)
T043C 004:343 JLINK_ReadMem (0x4001C01C, 0x0020 Bytes, ...) -- CPU is running -- CPU_ReadMem(32 bytes @ 0x4001C01C) - Data: 00 00 00 00 00 00 00 00 00 00 00 00 00 00 00 00 ...  returns 0x00 (0001ms, 1369ms total)
T043C 004:344 JLINK_ReadMem (0x4001C03C, 0x0004 Bytes, ...) -- CPU is running -- CPU_ReadMem(4 bytes @ 0x4001C03C) - Data: 00 00 00 00  returns 0x00 (0001ms, 1370ms total)
T043C 004:346 JLINK_ReadMem (0x40024000, 0x0004 Bytes, ...) -- CPU is running -- CPU_ReadMem(4 bytes @ 0x40024000) - Data: 00 00 00 00  returns 0x00 (0001ms, 1371ms total)
T043C 004:348 JLINK_ReadMem (0x40024008, 0x004C Bytes, ...) -- CPU is running -- CPU_ReadMem(76 bytes @ 0x40024008) - Data: 11 00 00 00 01 00 00 00 00 00 00 00 00 2A 0C 05 ...  returns 0x00 (0002ms, 1373ms total)
T043C 004:350 JLINK_ReadMem (0x40024054, 0x0004 Bytes, ...) -- CPU is running -- CPU_ReadMem(4 bytes @ 0x40024054) - Data: 2C 3F 4D E0  returns 0x00 (0000ms, 1373ms total)
T043C 004:351 JLINK_ReadMem (0x40024058, 0x0004 Bytes, ...) -- CPU is running -- CPU_ReadMem(4 bytes @ 0x40024058) - Data: 00 00 00 00  returns 0x00 (0001ms, 1375ms total)
T043C 004:353 JLINK_ReadMem (0x4002405C, 0x0004 Bytes, ...) -- CPU is running -- CPU_ReadMem(4 bytes @ 0x4002405C) - Data: 10 00 00 00  returns 0x00 (0001ms, 1376ms total)
T043C 004:355 JLINK_ReadMem (0x40024060, 0x001C Bytes, ...) -- CPU is running -- CPU_ReadMem(28 bytes @ 0x40024060) - Data: 0F 00 00 00 2B 00 00 00 0C 00 00 00 1A 00 00 00 ...  returns 0x00 (0000ms, 1377ms total)
T043C 004:356 JLINK_ReadMem (0x4002407C, 0x0004 Bytes, ...) -- CPU is running -- CPU_ReadMem(4 bytes @ 0x4002407C) - Data: E2 07 00 00  returns 0x00 (0000ms, 1378ms total)
T1DF0 004:357 JLINK_IsHalted()  returns FALSE (0001ms, 1379ms total)
T1DF0 004:458 JLINK_SWO_Read(..., Offset = 0x00, NumBytes = 0x400000) - Data: C5 85 D5 01 D5 05 C5 28 94 15 E1 15 C5 84 C5 05 ...  NumBytesRead = 0x73 (0000ms, 1378ms total)
T1DF0 004:460 JLINK_SWO_Control(JLINKARM_SWO_CMD_FLUSH, ...)  returns 0x00 (0000ms, 1378ms total)
T1DF0 004:460 JLINK_IsHalted()  returns FALSE (0000ms, 1378ms total)
T1DF0 004:560 JLINK_SWO_Read(..., Offset = 0x00, NumBytes = 0x400000) - Data: D5 01 D5 85 E5 20 94 15 C1 15 C5 04 C5 05 D5 85 ...  NumBytesRead = 0x3E (0001ms, 1379ms total)
T1DF0 004:563 JLINK_SWO_Control(JLINKARM_SWO_CMD_FLUSH, ...)  returns 0x00 (0000ms, 1379ms total)
T1DF0 004:563 JLINK_IsHalted()  returns FALSE (0000ms, 1379ms total)
T1DF0 004:663 JLINK_SWO_Read(..., Offset = 0x00, NumBytes = 0x400000) - Data: 94 15 E1 15 C5 14 C5 05 D5 05 D5 05 C5 20 A2 15 ...  NumBytesRead = 0x3F (0000ms, 1379ms total)
T1DF0 004:665 JLINK_SWO_Control(JLINKARM_SWO_CMD_FLUSH, ...)  returns 0x00 (0000ms, 1379ms total)
T1DF0 004:665 JLINK_IsHalted()  returns FALSE (0000ms, 1379ms total)
T1DF0 004:765 JLINK_SWO_Read(..., Offset = 0x00, NumBytes = 0x400000) - Data: E5 05 D5 85 D5 01 C5 28 C5 05 C5 15 E5 14 C5 85 ...  NumBytesRead = 0x41 (0000ms, 1379ms total)
T1DF0 004:768 JLINK_SWO_Control(JLINKARM_SWO_CMD_FLUSH, ...)  returns 0x00 (0001ms, 1380ms total)
T1DF0 004:769 JLINK_IsHalted()  returns FALSE (0000ms, 1380ms total)
T1DF0 004:869 JLINK_SWO_Read(..., Offset = 0x00, NumBytes = 0x400000) - Data: 20 94 05 C5 15 C5 15 C5 85 F5 05 D5 81 D5 85 C5 ...  NumBytesRead = 0x3D (0000ms, 1380ms total)
T1DF0 004:872 JLINK_SWO_Control(JLINKARM_SWO_CMD_FLUSH, ...)  returns 0x00 (0001ms, 1381ms total)
T1DF0 004:873 JLINK_ReadMemU32(0xE0001004, 0x0001 Items, ...) -- CPU is running -- CPU_ReadMem(4 bytes @ 0xE0001004) - Data: CF 40 B3 06  returns 0x01 (0000ms, 1381ms total)
T043C 004:875 JLINK_ReadMem (0x40004000, 0x0030 Bytes, ...) -- CPU is running -- CPU_ReadMem(48 bytes @ 0x40004000) - Data: 00 00 00 00 01 00 00 00 CB 27 00 00 00 00 00 00 ...  returns 0x00 (0002ms, 1383ms total)
T043C 004:879 JLINK_ReadMem (0x40004030, 0x0004 Bytes, ...) -- CPU is running -- CPU_ReadMem(4 bytes @ 0x40004030) - Data: 00 00 00 00  returns 0x00 (0001ms, 1384ms total)
T043C 004:880 JLINK_ReadMem (0x4000403C, 0x0004 Bytes, ...) -- CPU is running -- CPU_ReadMem(4 bytes @ 0x4000403C) - Data: 00 00 00 00  returns 0x00 (0001ms, 1385ms total)
T043C 004:881 JLINK_ReadMem (0x40004070, 0x0004 Bytes, ...) -- CPU is running -- CPU_ReadMem(4 bytes @ 0x40004070) - Data: 00 00 00 00  returns 0x00 (0001ms, 1386ms total)
T043C 004:886 JLINK_ReadMem (0x4002C000, 0x0010 Bytes, ...) -- CPU is running -- CPU_ReadMem(16 bytes @ 0x4002C000) - Data: 04 00 00 00 00 00 00 00 00 00 00 00 00 00 00 00  returns 0x00 (0000ms, 1386ms total)
T043C 004:886 JLINK_ReadMem (0x4002C010, 0x0004 Bytes, ...) -- CPU is running -- CPU_ReadMem(4 bytes @ 0x4002C010) - Data: 00 00 00 01  returns 0x00 (0001ms, 1387ms total)
T043C 004:887 JLINK_ReadMem (0x4002C01C, 0x0004 Bytes, ...) -- CPU is running -- CPU_ReadMem(4 bytes @ 0x4002C01C) - Data: 00 00 00 00  returns 0x00 (0001ms, 1388ms total)
T043C 004:888 JLINK_ReadMem (0x4002C024, 0x0004 Bytes, ...) -- CPU is running -- CPU_ReadMem(4 bytes @ 0x4002C024) - Data: 00 00 00 00  returns 0x00 (0001ms, 1389ms total)
T043C 004:889 JLINK_ReadMem (0x4002C028, 0x0004 Bytes, ...) -- CPU is running -- CPU_ReadMem(4 bytes @ 0x4002C028) - Data: 00 00 00 00  returns 0x00 (0001ms, 1390ms total)
T043C 004:892 JLINK_ReadMem (0x4002C040, 0x0010 Bytes, ...) -- CPU is running -- CPU_ReadMem(16 bytes @ 0x4002C040) - Data: 00 00 00 00 00 00 00 00 0A 00 2A A0 02 AA 2A 00  returns 0x00 (0001ms, 1391ms total)
T043C 004:893 JLINK_ReadMem (0x4002C050, 0x0004 Bytes, ...) -- CPU is running -- CPU_ReadMem(4 bytes @ 0x4002C050) - Data: 00 00 00 00  returns 0x00 (0001ms, 1392ms total)
T043C 004:894 JLINK_ReadMem (0x4002C05C, 0x0004 Bytes, ...) -- CPU is running -- CPU_ReadMem(4 bytes @ 0x4002C05C) - Data: 00 00 00 00  returns 0x00 (0001ms, 1393ms total)
T043C 004:895 JLINK_ReadMem (0x4002C064, 0x0018 Bytes, ...) -- CPU is running -- CPU_ReadMem(24 bytes @ 0x4002C064) - Data: 00 00 00 00 00 00 00 00 00 00 00 00 00 00 00 00 ...  returns 0x00 (0001ms, 1394ms total)
T043C 004:896 JLINK_ReadMem (0x4002C07C, 0x0004 Bytes, ...) -- CPU is running -- CPU_ReadMem(4 bytes @ 0x4002C07C) - Data: 00 00 00 00  returns 0x00 (0001ms, 1395ms total)
T043C 004:899 JLINK_ReadMem (0x2009C000, 0x0004 Bytes, ...) -- CPU is running -- CPU_ReadMem(4 bytes @ 0x2009C000) - Data: 00 00 00 00  returns 0x00 (0001ms, 1396ms total)
T043C 004:900 JLINK_ReadMem (0x2009C010, 0x0004 Bytes, ...) -- CPU is running -- CPU_ReadMem(4 bytes @ 0x2009C010) - Data: 00 00 00 00  returns 0x00 (0001ms, 1397ms total)
T043C 004:901 JLINK_ReadMem (0x2009C014, 0x0004 Bytes, ...) -- CPU is running -- CPU_ReadMem(4 bytes @ 0x2009C014) - Data: FF 8F FF 1F  returns 0x00 (0001ms, 1398ms total)
T043C 004:902 JLINK_ReadMem (0x2009C018, 0x0004 Bytes, ...) -- CPU is running -- CPU_ReadMem(4 bytes @ 0x2009C018) - Data: 00 00 00 00  returns 0x00 (0001ms, 1399ms total)
T043C 004:903 JLINK_ReadMem (0x2009C020, 0x0004 Bytes, ...) -- CPU is running -- CPU_ReadMem(4 bytes @ 0x2009C020) - Data: 03 C7 F1 07  returns 0x00 (0001ms, 1400ms total)
